
T53D0 000:157 SEGGER J-Link V6.14b Log File (0000ms, 0020ms total)
T53D0 000:157 DLL Compiled: Mar  9 2017 08:46:04 (0000ms, 0020ms total)
T53D0 000:157 Logging started @ 2021-05-18 05:14 (0000ms, 0020ms total)
T53D0 000:158 JLINK_SetWarnOutHandler(...) (0000ms, 0021ms total)
T53D0 000:158 JLINK_OpenEx(...)
Firmware: J-Link V11 compiled Apr 27 2021 16:36:21
Hardware: V11.00
S/N: 50120677
Feature(s): GDB, JFlash, FlashDL, RDI, FlashBPWEBSRV Webserver running on local port 19080 (0013ms, 0034ms total)
T53D0 000:158   returns O.K. (0013ms, 0034ms total)
T53D0 000:171 JLINK_SetErrorOutHandler(...) (0000ms, 0034ms total)
T53D0 000:171 JLINK_ExecCommand("ProjectFile = "D:\LEEKA\RM2020\[2021]CODE\Infantry_Momentum5_17\Infantry_Momentum\MDK-ARM\JLinkSettings.ini"", ...). C:\Program Files (x86)\SEGGER\JLink_V614b\JLinkDevices.xml evaluated successfully.Device "STM32F405RG" selected.  returns 0x00 (0143ms, 0177ms total)
T53D0 000:324 JLINK_ExecCommand("Device = STM32F405RG", ...). Device "STM32F405RG" selected.  returns 0x00 (0014ms, 0191ms total)
T53D0 000:338 JLINK_ExecCommand("DisableConnectionTimeout", ...).   returns 0x01 (0000ms, 0191ms total)
T53D0 000:338 JLINK_GetHardwareVersion()  returns 0x1ADB0 (0000ms, 0191ms total)
T53D0 000:338 JLINK_GetDLLVersion()  returns 61402 (0000ms, 0191ms total)
T53D0 000:338 JLINK_GetFirmwareString(...) (0000ms, 0191ms total)
T53D0 000:367 JLINK_GetDLLVersion()  returns 61402 (0000ms, 0191ms total)
T53D0 000:367 JLINK_GetCompileDateTime() (0000ms, 0191ms total)
T53D0 000:377 JLINK_GetFirmwareString(...) (0000ms, 0191ms total)
T53D0 000:386 JLINK_GetHardwareVersion()  returns 0x1ADB0 (0000ms, 0191ms total)
T53D0 000:426 JLINK_TIF_Select(JLINKARM_TIF_SWD)  returns 0x00 (0001ms, 0192ms total)
T53D0 000:427 JLINK_SetSpeed(5000) (0000ms, 0192ms total)
T53D0 000:427 JLINK_GetId() >0x108 TIF>Found SWD-DP with ID 0x2BA01477 >0x0D TIF> >0x28 TIF> >0x0D TIF> >0x28 TIF> >0x0D TIF> >0x28 TIF> >0x0D TIF> >0x28 TIF> >0x0D TIF> >0x21 TIF> >0x0D TIF> >0x28 TIF> >0x0D TIF> >0x28 TIF> >0x0D TIF> >0x28 TIF> >0x0D TIF> >0x21 TIF> >0x0D TIF> >0x21 TIF> >0x0D TIF> >0x28 TIF> >0x0D TIF> >0x21 TIF> >0x0D TIF> >0x21 TIF> >0x0D TIF> >0x28 TIF> >0x0D TIF> >0x21 TIF> >0x0D TIF> >0x21 TIF> >0x0D TIF> >0x28 TIF> >0x0D TIF> >0x21 TIF> >0x0D TIF> >0x21 TIF> >0x0D TIF>
 >0x28 TIF> >0x0D TIF> >0x21 TIF> >0x0D TIF> >0x21 TIF> >0x0D TIF> >0x28 TIF> >0x0D TIF> >0x21 TIF> >0x0D TIF> >0x21 TIF> >0x108 TIF>Found SWD-DP with ID 0x2BA01477 >0x0D TIF> >0x28 TIF> >0x0D TIF> >0x28 TIF> >0x0D TIF> >0x28 TIF> >0x0D TIF> >0x28 TIF> >0x0D TIF> >0x21 TIF> >0x0D TIF> >0x28 TIF> >0x0D TIF> >0x28 TIF> >0x0D TIF> >0x21 TIF> >0x0D TIF> >0x21 TIF> >0x0D TIF> >0x21 TIF>AP-IDR: 0x24770011, Type: AHB-APAHB-AP ROM: 0xE00FF000 (Base addr. of first ROM table) >0x0D TIF> >0x28 TIF> >0x0D TIF>
 >0x28 TIF> >0x0D TIF> >0x28 TIF> >0x0D TIF> >0x21 TIF> >0x0D TIF> >0x21 TIF> >0x0D TIF> >0x28 TIF> >0x0D TIF> >0x21 TIF> >0x0D TIF> >0x21 TIF>Found Cortex-M4 r0p1, Little endian. -- CPU_ReadMem(4 bytes @ 0xE000EDF0) -- CPU_WriteMem(4 bytes @ 0xE000EDF0) -- CPU_ReadMem(4 bytes @ 0xE0002000)FPUnit: 6 code (BP) slots and 2 literal slots -- CPU_ReadMem(4 bytes @ 0xE000EDFC) -- CPU_WriteMem(4 bytes @ 0xE000EDFC) -- CPU_ReadMem(4 bytes @ 0xE0001000) -- CPU_WriteMem(4 bytes @ 0xE0001000)
 -- CPU_ReadMem(4 bytes @ 0xE000ED88) -- CPU_WriteMem(4 bytes @ 0xE000ED88) -- CPU_ReadMem(4 bytes @ 0xE000ED88) -- CPU_WriteMem(4 bytes @ 0xE000ED88)CoreSight components:ROMTbl 0 @ E00FF000 -- CPU_ReadMem(16 bytes @ 0xE00FF000) -- CPU_ReadMem(16 bytes @ 0xE000EFF0) -- CPU_ReadMem(16 bytes @ 0xE000EFE0)ROMTbl 0 [0]: FFF0F000, CID: B105E00D, PID: 000BB00C SCS -- CPU_ReadMem(16 bytes @ 0xE0001FF0) -- CPU_ReadMem(16 bytes @ 0xE0001FE0)ROMTbl 0 [1]: FFF02000, CID: B105E00D, PID: 003BB002 DWT
 -- CPU_ReadMem(16 bytes @ 0xE0002FF0) -- CPU_ReadMem(16 bytes @ 0xE0002FE0)ROMTbl 0 [2]: FFF03000, CID: B105E00D, PID: 002BB003 FPB -- CPU_ReadMem(16 bytes @ 0xE0000FF0) -- CPU_ReadMem(16 bytes @ 0xE0000FE0)ROMTbl 0 [3]: FFF01000, CID: B105E00D, PID: 003BB001 ITM -- CPU_ReadMem(16 bytes @ 0xE00FF010) -- CPU_ReadMem(16 bytes @ 0xE0040FF0) -- CPU_ReadMem(16 bytes @ 0xE0040FE0)ROMTbl 0 [4]: FFF41000, CID: B105900D, PID: 000BB9A1 TPIU -- CPU_ReadMem(16 bytes @ 0xE0041FF0)
 -- CPU_ReadMem(16 bytes @ 0xE0041FE0)ROMTbl 0 [5]: FFF42000, CID: B105900D, PID: 000BB925 ETM >0x0D TIF> >0x21 TIF>  returns 0x2BA01477 (0110ms, 0302ms total)
T53D0 000:538 JLINK_GetDLLVersion()  returns 61402 (0000ms, 0303ms total)
T53D0 000:538 JLINK_CORE_GetFound()  returns 0xE0000FF (0000ms, 0303ms total)
T53D0 000:538 JLINK_GetDebugInfo(0x100 = JLINKARM_ROM_TABLE_ADDR_INDEX) -- Value=0xE00FF000  returns 0x00 (0000ms, 0303ms total)
T53D0 000:543 JLINK_ReadMem (0xE00FF000, 0x0020 Bytes, ...) -- CPU is running -- CPU_ReadMem(32 bytes @ 0xE00FF000) - Data: 03 F0 F0 FF 03 20 F0 FF 03 30 F0 FF 03 10 F0 FF ...  returns 0x00 (0000ms, 0303ms total)
T53D0 000:543 JLINK_ReadMem (0xE000EFF0, 0x0010 Bytes, ...) -- CPU is running -- CPU_ReadMem(16 bytes @ 0xE000EFF0) - Data: 0D 00 00 00 E0 00 00 00 05 00 00 00 B1 00 00 00  returns 0x00 (0001ms, 0304ms total)
T53D0 000:544 JLINK_ReadMem (0xE000EFD0, 0x0020 Bytes, ...) -- CPU is running -- CPU_ReadMem(32 bytes @ 0xE000EFD0) - Data: 04 00 00 00 00 00 00 00 00 00 00 00 00 00 00 00 ...  returns 0x00 (0000ms, 0304ms total)
T53D0 000:544 JLINK_ReadMem (0xE0001FF0, 0x0010 Bytes, ...) -- CPU is running -- CPU_ReadMem(16 bytes @ 0xE0001FF0) - Data: 0D 00 00 00 E0 00 00 00 05 00 00 00 B1 00 00 00  returns 0x00 (0000ms, 0304ms total)
T53D0 000:544 JLINK_ReadMem (0xE0001FD0, 0x0020 Bytes, ...) -- CPU is running -- CPU_ReadMem(32 bytes @ 0xE0001FD0) - Data: 04 00 00 00 00 00 00 00 00 00 00 00 00 00 00 00 ...  returns 0x00 (0001ms, 0305ms total)
T53D0 000:545 JLINK_ReadMem (0xE0002FF0, 0x0010 Bytes, ...) -- CPU is running -- CPU_ReadMem(16 bytes @ 0xE0002FF0) - Data: 0D 00 00 00 E0 00 00 00 05 00 00 00 B1 00 00 00  returns 0x00 (0000ms, 0305ms total)
T53D0 000:545 JLINK_ReadMem (0xE0002FD0, 0x0020 Bytes, ...) -- CPU is running -- CPU_ReadMem(32 bytes @ 0xE0002FD0) - Data: 04 00 00 00 00 00 00 00 00 00 00 00 00 00 00 00 ...  returns 0x00 (0000ms, 0305ms total)
T53D0 000:545 JLINK_ReadMem (0xE0000FF0, 0x0010 Bytes, ...) -- CPU is running -- CPU_ReadMem(16 bytes @ 0xE0000FF0) - Data: 0D 00 00 00 E0 00 00 00 05 00 00 00 B1 00 00 00  returns 0x00 (0001ms, 0306ms total)
T53D0 000:546 JLINK_ReadMem (0xE0000FD0, 0x0020 Bytes, ...) -- CPU is running -- CPU_ReadMem(32 bytes @ 0xE0000FD0) - Data: 04 00 00 00 00 00 00 00 00 00 00 00 00 00 00 00 ...  returns 0x00 (0000ms, 0306ms total)
T53D0 000:546 JLINK_ReadMem (0xE0040FF0, 0x0010 Bytes, ...) -- CPU is running -- CPU_ReadMem(16 bytes @ 0xE0040FF0) - Data: 0D 00 00 00 90 00 00 00 05 00 00 00 B1 00 00 00  returns 0x00 (0000ms, 0306ms total)
T53D0 000:546 JLINK_ReadMem (0xE0040FD0, 0x0020 Bytes, ...) -- CPU is running -- CPU_ReadMem(32 bytes @ 0xE0040FD0) - Data: 04 00 00 00 00 00 00 00 00 00 00 00 00 00 00 00 ...  returns 0x00 (0000ms, 0306ms total)
T53D0 000:546 JLINK_ReadMem (0xE0041FF0, 0x0010 Bytes, ...) -- CPU is running -- CPU_ReadMem(16 bytes @ 0xE0041FF0) - Data: 0D 00 00 00 90 00 00 00 05 00 00 00 B1 00 00 00  returns 0x00 (0001ms, 0307ms total)
T53D0 000:547 JLINK_ReadMem (0xE0041FD0, 0x0020 Bytes, ...) -- CPU is running -- CPU_ReadMem(32 bytes @ 0xE0041FD0) - Data: 04 00 00 00 00 00 00 00 00 00 00 00 00 00 00 00 ...  returns 0x00 (0000ms, 0307ms total)
T53D0 000:547 JLINK_ReadMemU32(0xE000EF40, 0x0001 Items, ...) -- CPU is running -- CPU_ReadMem(4 bytes @ 0xE000EF40) - Data: 21 00 11 10  returns 0x01 (0000ms, 0307ms total)
T53D0 000:547 JLINK_ReadMemU32(0xE000EF44, 0x0001 Items, ...) -- CPU is running -- CPU_ReadMem(4 bytes @ 0xE000EF44) - Data: 11 00 00 11  returns 0x01 (0001ms, 0308ms total)
T53D0 000:548 JLINK_ReadMemU32(0xE000ED00, 0x0001 Items, ...) -- CPU is running -- CPU_ReadMem(4 bytes @ 0xE000ED00) - Data: 41 C2 0F 41  returns 0x01 (0000ms, 0308ms total)
T53D0 000:548 JLINK_SetResetType(JLINKARM_CM3_RESET_TYPE_NORMAL)  returns JLINKARM_CM3_RESET_TYPE_NORMAL (0000ms, 0308ms total)
T53D0 000:548 JLINK_Reset() -- CPU is running -- CPU_WriteMem(4 bytes @ 0xE000EDF0) -- CPU is running -- CPU_WriteMem(4 bytes @ 0xE000EDFC) >0x35 TIF> -- CPU is running -- CPU_WriteMem(4 bytes @ 0xE000ED0C) >0x0D TIF> >0x28 TIF> -- CPU is running -- CPU_ReadMem(4 bytes @ 0xE000EDF0) -- CPU is running -- CPU_ReadMem(4 bytes @ 0xE000EDF0) -- CPU is running -- CPU_WriteMem(4 bytes @ 0xE000EDF0) -- CPU is running -- CPU_WriteMem(4 bytes @ 0xE000EDFC) -- CPU is running -- CPU_ReadMem(4 bytes @ 0xE000EDF0)
 -- CPU_WriteMem(4 bytes @ 0xE0002000) -- CPU_ReadMem(4 bytes @ 0xE000EDFC) -- CPU_ReadMem(4 bytes @ 0xE0001000) (0063ms, 0371ms total)
T53D0 000:611 JLINK_Halt()  returns 0x00 (0000ms, 0371ms total)
T53D0 000:611 JLINK_IsHalted()  returns TRUE (0001ms, 0372ms total)
T53D0 000:612 JLINK_ReadMemU32(0xE000EDF0, 0x0001 Items, ...) -- CPU_ReadMem(4 bytes @ 0xE000EDF0) - Data: 03 00 03 00  returns 0x01 (0000ms, 0371ms total)
T53D0 000:612 JLINK_WriteU32(0xE000EDF0, 0xA05F0003) -- CPU_WriteMem(4 bytes @ 0xE000EDF0)  returns 0x00 (0000ms, 0371ms total)
T53D0 000:612 JLINK_WriteU32(0xE000EDFC, 0x01000000) -- CPU_WriteMem(4 bytes @ 0xE000EDFC)  returns 0x00 (0000ms, 0371ms total)
T53D0 000:639 JLINK_GetHWStatus(...)  returns 0x00 (0001ms, 0372ms total)
T53D0 000:656 JLINK_GetNumBPUnits(Type = 0xFFFFFF00)  returns 0x06 (0000ms, 0372ms total)
T53D0 000:656 JLINK_GetNumBPUnits(Type = 0xF0)  returns 0x2000 (0000ms, 0372ms total)
T53D0 000:656 JLINK_GetNumWPUnits()  returns 0x04 (0000ms, 0372ms total)
T53D0 000:673 JLINK_GetSpeed()  returns 0x1388 (0000ms, 0372ms total)
T53D0 000:685 JLINK_ReadMemU32(0xE000E004, 0x0001 Items, ...) -- CPU_ReadMem(4 bytes @ 0xE000E004) - Data: 02 00 00 00  returns 0x01 (0000ms, 0372ms total)
T53D0 000:685 JLINK_ReadMemU32(0xE000E004, 0x0001 Items, ...) -- CPU_ReadMem(4 bytes @ 0xE000E004) - Data: 02 00 00 00  returns 0x01 (0001ms, 0373ms total)
T53D0 000:686 JLINK_WriteMem(0xE0001000, 0x001C Bytes, ...) - Data: 01 00 00 00 00 00 00 00 00 00 00 00 00 00 00 00 ... -- CPU_WriteMem(28 bytes @ 0xE0001000)  returns 0x1C (0000ms, 0373ms total)
T53D0 000:686 JLINK_ReadMem (0xE0001000, 0x001C Bytes, ...) -- CPU_ReadMem(28 bytes @ 0xE0001000) - Data: 01 00 00 40 00 00 00 00 00 00 00 00 00 00 00 00 ...  returns 0x00 (0000ms, 0373ms total)
T53D0 000:686 JLINK_Halt()  returns 0x00 (0001ms, 0374ms total)
T53D0 000:687 JLINK_IsHalted()  returns TRUE (0000ms, 0374ms total)
T53D0 000:690 JLINK_WriteMem(0x20000000, 0x0180 Bytes, ...) - Data: 00 BE 0A E0 0D 78 2D 06 68 40 08 24 40 00 00 D3 ... -- CPU_WriteMem(384 bytes @ 0x20000000)  returns 0x180 (0002ms, 0376ms total)
T53D0 000:692 JLINK_WriteReg(R0, 0x08000000)  returns 0x00 (0000ms, 0376ms total)
T53D0 000:692 JLINK_WriteReg(R1, 0x00B71B00)  returns 0x00 (0000ms, 0376ms total)
T53D0 000:692 JLINK_WriteReg(R2, 0x00000001)  returns 0x00 (0000ms, 0376ms total)
T53D0 000:692 JLINK_WriteReg(R3, 0x00000000)  returns 0x00 (0000ms, 0376ms total)
T53D0 000:692 JLINK_WriteReg(R4, 0x00000000)  returns 0x00 (0000ms, 0376ms total)
T53D0 000:692 JLINK_WriteReg(R5, 0x00000000)  returns 0x00 (0000ms, 0376ms total)
T53D0 000:692 JLINK_WriteReg(R6, 0x00000000)  returns 0x00 (0000ms, 0376ms total)
T53D0 000:692 JLINK_WriteReg(R7, 0x00000000)  returns 0x00 (0000ms, 0376ms total)
T53D0 000:692 JLINK_WriteReg(R8, 0x00000000)  returns 0x00 (0000ms, 0376ms total)
T53D0 000:692 JLINK_WriteReg(R9, 0x2000017C)  returns 0x00 (0000ms, 0376ms total)
T53D0 000:692 JLINK_WriteReg(R10, 0x00000000)  returns 0x00 (0000ms, 0376ms total)
T53D0 000:692 JLINK_WriteReg(R11, 0x00000000)  returns 0x00 (0000ms, 0376ms total)
T53D0 000:692 JLINK_WriteReg(R12, 0x00000000)  returns 0x00 (0000ms, 0376ms total)
T53D0 000:692 JLINK_WriteReg(R13 (SP), 0x20001000)  returns 0x00 (0000ms, 0376ms total)
T53D0 000:692 JLINK_WriteReg(R14, 0x20000001)  returns 0x00 (0000ms, 0376ms total)
T53D0 000:692 JLINK_WriteReg(R15 (PC), 0x20000054)  returns 0x00 (0000ms, 0376ms total)
T53D0 000:692 JLINK_WriteReg(XPSR, 0x01000000)  returns 0x00 (0000ms, 0376ms total)
T53D0 000:692 JLINK_WriteReg(MSP, 0x20001000)  returns 0x00 (0000ms, 0376ms total)
T53D0 000:692 JLINK_WriteReg(PSP, 0x20001000)  returns 0x00 (0000ms, 0376ms total)
T53D0 000:692 JLINK_WriteReg(CFBP, 0x00000000)  returns 0x00 (0000ms, 0376ms total)
T53D0 000:693 JLINK_SetBPEx(Addr = 0x20000000, Type = 0xFFFFFFF2) -- CPU_ReadMem(2 bytes @ 0x20000000)  returns 0x00000001 (0000ms, 0376ms total)
T53D0 000:693 JLINK_Go() -- CPU_WriteMem(2 bytes @ 0x20000000) -- CPU_ReadMem(4 bytes @ 0xE0001000) -- CPU_WriteMem(4 bytes @ 0xE0002008) -- CPU_WriteMem(4 bytes @ 0xE000200C) -- CPU_WriteMem(4 bytes @ 0xE0002010) -- CPU_WriteMem(4 bytes @ 0xE0002014) -- CPU_WriteMem(4 bytes @ 0xE0002018) -- CPU_WriteMem(4 bytes @ 0xE000201C) -- CPU_WriteMem(4 bytes @ 0xE0001004) (0002ms, 0378ms total)
T53D0 000:695 JLINK_IsHalted() -- CPU_ReadMem(2 bytes @ 0x20000000)  returns TRUE (0002ms, 0380ms total)
T53D0 000:697 JLINK_ReadReg(R15 (PC))  returns 0x20000000 (0000ms, 0378ms total)
T53D0 000:697 JLINK_ClrBPEx(BPHandle = 0x00000001)  returns 0x00 (0000ms, 0378ms total)
T53D0 000:697 JLINK_ReadReg(R0)  returns 0x00000000 (0000ms, 0378ms total)
T53D0 000:698 JLINK_WriteReg(R0, 0x08000000)  returns 0x00 (0000ms, 0378ms total)
T53D0 000:698 JLINK_WriteReg(R1, 0x00004000)  returns 0x00 (0000ms, 0378ms total)
T53D0 000:698 JLINK_WriteReg(R2, 0x000000FF)  returns 0x00 (0000ms, 0378ms total)
T53D0 000:698 JLINK_WriteReg(R3, 0x00000000)  returns 0x00 (0000ms, 0378ms total)
T53D0 000:698 JLINK_WriteReg(R4, 0x00000000)  returns 0x00 (0000ms, 0378ms total)
T53D0 000:698 JLINK_WriteReg(R5, 0x00000000)  returns 0x00 (0000ms, 0378ms total)
T53D0 000:698 JLINK_WriteReg(R6, 0x00000000)  returns 0x00 (0000ms, 0378ms total)
T53D0 000:698 JLINK_WriteReg(R7, 0x00000000)  returns 0x00 (0000ms, 0378ms total)
T53D0 000:698 JLINK_WriteReg(R8, 0x00000000)  returns 0x00 (0000ms, 0378ms total)
T53D0 000:698 JLINK_WriteReg(R9, 0x2000017C)  returns 0x00 (0000ms, 0378ms total)
T53D0 000:698 JLINK_WriteReg(R10, 0x00000000)  returns 0x00 (0000ms, 0378ms total)
T53D0 000:698 JLINK_WriteReg(R11, 0x00000000)  returns 0x00 (0000ms, 0378ms total)
T53D0 000:698 JLINK_WriteReg(R12, 0x00000000)  returns 0x00 (0000ms, 0378ms total)
T53D0 000:698 JLINK_WriteReg(R13 (SP), 0x20001000)  returns 0x00 (0000ms, 0378ms total)
T53D0 000:698 JLINK_WriteReg(R14, 0x20000001)  returns 0x00 (0000ms, 0378ms total)
T53D0 000:698 JLINK_WriteReg(R15 (PC), 0x20000020)  returns 0x00 (0000ms, 0378ms total)
T53D0 000:698 JLINK_WriteReg(XPSR, 0x01000000)  returns 0x00 (0000ms, 0378ms total)
T53D0 000:698 JLINK_WriteReg(MSP, 0x20001000)  returns 0x00 (0000ms, 0378ms total)
T53D0 000:698 JLINK_WriteReg(PSP, 0x20001000)  returns 0x00 (0000ms, 0378ms total)
T53D0 000:698 JLINK_WriteReg(CFBP, 0x00000000)  returns 0x00 (0000ms, 0378ms total)
T53D0 000:698 JLINK_SetBPEx(Addr = 0x20000000, Type = 0xFFFFFFF2)  returns 0x00000002 (0000ms, 0378ms total)
T53D0 000:698 JLINK_Go() -- CPU_ReadMem(4 bytes @ 0xE0001000) (0001ms, 0379ms total)
T53D0 000:699 JLINK_IsHalted() -- CPU_ReadMem(2 bytes @ 0x20000000)  returns TRUE (0002ms, 0381ms total)
T53D0 000:701 JLINK_ReadReg(R15 (PC))  returns 0x20000000 (0000ms, 0379ms total)
T53D0 000:701 JLINK_ClrBPEx(BPHandle = 0x00000002)  returns 0x00 (0000ms, 0379ms total)
T53D0 000:701 JLINK_ReadReg(R0)  returns 0x00000001 (0000ms, 0379ms total)
T53D0 000:701 JLINK_WriteReg(R0, 0x08000000)  returns 0x00 (0000ms, 0379ms total)
T53D0 000:701 JLINK_WriteReg(R1, 0x00004000)  returns 0x00 (0000ms, 0379ms total)
T53D0 000:701 JLINK_WriteReg(R2, 0x000000FF)  returns 0x00 (0000ms, 0379ms total)
T53D0 000:701 JLINK_WriteReg(R3, 0x00000000)  returns 0x00 (0000ms, 0379ms total)
T53D0 000:701 JLINK_WriteReg(R4, 0x00000000)  returns 0x00 (0000ms, 0379ms total)
T53D0 000:701 JLINK_WriteReg(R5, 0x00000000)  returns 0x00 (0000ms, 0379ms total)
T53D0 000:701 JLINK_WriteReg(R6, 0x00000000)  returns 0x00 (0000ms, 0379ms total)
T53D0 000:701 JLINK_WriteReg(R7, 0x00000000)  returns 0x00 (0000ms, 0379ms total)
T53D0 000:701 JLINK_WriteReg(R8, 0x00000000)  returns 0x00 (0000ms, 0379ms total)
T53D0 000:701 JLINK_WriteReg(R9, 0x2000017C)  returns 0x00 (0000ms, 0379ms total)
T53D0 000:701 JLINK_WriteReg(R10, 0x00000000)  returns 0x00 (0001ms, 0380ms total)
T53D0 000:702 JLINK_WriteReg(R11, 0x00000000)  returns 0x00 (0000ms, 0380ms total)
T53D0 000:702 JLINK_WriteReg(R12, 0x00000000)  returns 0x00 (0000ms, 0380ms total)
T53D0 000:702 JLINK_WriteReg(R13 (SP), 0x20001000)  returns 0x00 (0000ms, 0380ms total)
T53D0 000:702 JLINK_WriteReg(R14, 0x20000001)  returns 0x00 (0000ms, 0380ms total)
T53D0 000:702 JLINK_WriteReg(R15 (PC), 0x200000BC)  returns 0x00 (0000ms, 0380ms total)
T53D0 000:702 JLINK_WriteReg(XPSR, 0x01000000)  returns 0x00 (0000ms, 0380ms total)
T53D0 000:702 JLINK_WriteReg(MSP, 0x20001000)  returns 0x00 (0000ms, 0380ms total)
T53D0 000:702 JLINK_WriteReg(PSP, 0x20001000)  returns 0x00 (0000ms, 0380ms total)
T53D0 000:702 JLINK_WriteReg(CFBP, 0x00000000)  returns 0x00 (0000ms, 0380ms total)
T53D0 000:702 JLINK_SetBPEx(Addr = 0x20000000, Type = 0xFFFFFFF2)  returns 0x00000003 (0000ms, 0380ms total)
T53D0 000:702 JLINK_Go() -- CPU_ReadMem(4 bytes @ 0xE0001000) (0001ms, 0381ms total)
T53D0 000:703 JLINK_IsHalted()  returns FALSE (0000ms, 0381ms total)
T53D0 000:905 JLINK_IsHalted()  returns FALSE (0000ms, 0381ms total)
T53D0 001:058 JLINK_IsHalted()  returns FALSE (0000ms, 0381ms total)
T53D0 001:074 JLINK_IsHalted()  returns FALSE (0000ms, 0381ms total)
T53D0 001:082 JLINK_IsHalted()  returns FALSE (0000ms, 0381ms total)
T53D0 001:084 JLINK_IsHalted()  returns FALSE (0000ms, 0381ms total)
T53D0 001:086 JLINK_IsHalted()  returns FALSE (0000ms, 0381ms total)
T53D0 001:102 JLINK_IsHalted() -- CPU_ReadMem(2 bytes @ 0x20000000)  returns TRUE (0001ms, 0382ms total)
T53D0 001:103 JLINK_ReadReg(R15 (PC))  returns 0x20000000 (0000ms, 0381ms total)
T53D0 001:104 JLINK_ClrBPEx(BPHandle = 0x00000003)  returns 0x00 (0000ms, 0382ms total)
T53D0 001:104 JLINK_ReadReg(R0)  returns 0x00000000 (0000ms, 0382ms total)
T53D0 001:104 JLINK_WriteReg(R0, 0x08004000)  returns 0x00 (0000ms, 0382ms total)
T53D0 001:104 JLINK_WriteReg(R1, 0x00004000)  returns 0x00 (0000ms, 0382ms total)
T53D0 001:104 JLINK_WriteReg(R2, 0x000000FF)  returns 0x00 (0000ms, 0382ms total)
T53D0 001:104 JLINK_WriteReg(R3, 0x00000000)  returns 0x00 (0000ms, 0382ms total)
T53D0 001:104 JLINK_WriteReg(R4, 0x00000000)  returns 0x00 (0000ms, 0382ms total)
T53D0 001:104 JLINK_WriteReg(R5, 0x00000000)  returns 0x00 (0000ms, 0382ms total)
T53D0 001:104 JLINK_WriteReg(R6, 0x00000000)  returns 0x00 (0000ms, 0382ms total)
T53D0 001:104 JLINK_WriteReg(R7, 0x00000000)  returns 0x00 (0000ms, 0382ms total)
T53D0 001:104 JLINK_WriteReg(R8, 0x00000000)  returns 0x00 (0000ms, 0382ms total)
T53D0 001:104 JLINK_WriteReg(R9, 0x2000017C)  returns 0x00 (0001ms, 0383ms total)
T53D0 001:105 JLINK_WriteReg(R10, 0x00000000)  returns 0x00 (0000ms, 0383ms total)
T53D0 001:105 JLINK_WriteReg(R11, 0x00000000)  returns 0x00 (0000ms, 0383ms total)
T53D0 001:105 JLINK_WriteReg(R12, 0x00000000)  returns 0x00 (0000ms, 0383ms total)
T53D0 001:105 JLINK_WriteReg(R13 (SP), 0x20001000)  returns 0x00 (0000ms, 0383ms total)
T53D0 001:105 JLINK_WriteReg(R14, 0x20000001)  returns 0x00 (0000ms, 0383ms total)
T53D0 001:105 JLINK_WriteReg(R15 (PC), 0x20000020)  returns 0x00 (0000ms, 0383ms total)
T53D0 001:105 JLINK_WriteReg(XPSR, 0x01000000)  returns 0x00 (0000ms, 0383ms total)
T53D0 001:105 JLINK_WriteReg(MSP, 0x20001000)  returns 0x00 (0000ms, 0383ms total)
T53D0 001:105 JLINK_WriteReg(PSP, 0x20001000)  returns 0x00 (0000ms, 0383ms total)
T53D0 001:105 JLINK_WriteReg(CFBP, 0x00000000)  returns 0x00 (0000ms, 0383ms total)
T53D0 001:105 JLINK_SetBPEx(Addr = 0x20000000, Type = 0xFFFFFFF2)  returns 0x00000004 (0000ms, 0383ms total)
T53D0 001:105 JLINK_Go() -- CPU_ReadMem(4 bytes @ 0xE0001000) (0000ms, 0383ms total)
T53D0 001:105 JLINK_IsHalted() -- CPU_ReadMem(2 bytes @ 0x20000000)  returns TRUE (0002ms, 0385ms total)
T53D0 001:107 JLINK_ReadReg(R15 (PC))  returns 0x20000000 (0000ms, 0383ms total)
T53D0 001:107 JLINK_ClrBPEx(BPHandle = 0x00000004)  returns 0x00 (0000ms, 0383ms total)
T53D0 001:107 JLINK_ReadReg(R0)  returns 0x00000001 (0000ms, 0383ms total)
T53D0 001:107 JLINK_WriteReg(R0, 0x08004000)  returns 0x00 (0000ms, 0383ms total)
T53D0 001:107 JLINK_WriteReg(R1, 0x00004000)  returns 0x00 (0000ms, 0383ms total)
T53D0 001:107 JLINK_WriteReg(R2, 0x000000FF)  returns 0x00 (0000ms, 0383ms total)
T53D0 001:107 JLINK_WriteReg(R3, 0x00000000)  returns 0x00 (0000ms, 0383ms total)
T53D0 001:107 JLINK_WriteReg(R4, 0x00000000)  returns 0x00 (0000ms, 0383ms total)
T53D0 001:107 JLINK_WriteReg(R5, 0x00000000)  returns 0x00 (0000ms, 0383ms total)
T53D0 001:107 JLINK_WriteReg(R6, 0x00000000)  returns 0x00 (0000ms, 0383ms total)
T53D0 001:107 JLINK_WriteReg(R7, 0x00000000)  returns 0x00 (0000ms, 0383ms total)
T53D0 001:107 JLINK_WriteReg(R8, 0x00000000)  returns 0x00 (0000ms, 0383ms total)
T53D0 001:107 JLINK_WriteReg(R9, 0x2000017C)  returns 0x00 (0000ms, 0383ms total)
T53D0 001:107 JLINK_WriteReg(R10, 0x00000000)  returns 0x00 (0000ms, 0383ms total)
T53D0 001:107 JLINK_WriteReg(R11, 0x00000000)  returns 0x00 (0000ms, 0383ms total)
T53D0 001:107 JLINK_WriteReg(R12, 0x00000000)  returns 0x00 (0000ms, 0383ms total)
T53D0 001:107 JLINK_WriteReg(R13 (SP), 0x20001000)  returns 0x00 (0000ms, 0383ms total)
T53D0 001:107 JLINK_WriteReg(R14, 0x20000001)  returns 0x00 (0000ms, 0383ms total)
T53D0 001:107 JLINK_WriteReg(R15 (PC), 0x200000BC)  returns 0x00 (0000ms, 0383ms total)
T53D0 001:107 JLINK_WriteReg(XPSR, 0x01000000)  returns 0x00 (0000ms, 0383ms total)
T53D0 001:107 JLINK_WriteReg(MSP, 0x20001000)  returns 0x00 (0000ms, 0383ms total)
T53D0 001:107 JLINK_WriteReg(PSP, 0x20001000)  returns 0x00 (0000ms, 0383ms total)
T53D0 001:107 JLINK_WriteReg(CFBP, 0x00000000)  returns 0x00 (0000ms, 0383ms total)
T53D0 001:107 JLINK_SetBPEx(Addr = 0x20000000, Type = 0xFFFFFFF2)  returns 0x00000005 (0000ms, 0383ms total)
T53D0 001:107 JLINK_Go() -- CPU_ReadMem(4 bytes @ 0xE0001000) (0001ms, 0384ms total)
T53D0 001:108 JLINK_IsHalted()  returns FALSE (0001ms, 0385ms total)
T53D0 001:389 JLINK_IsHalted()  returns FALSE (0000ms, 0384ms total)
T53D0 001:637 JLINK_IsHalted() -- CPU_ReadMem(2 bytes @ 0x20000000)  returns TRUE (0002ms, 0386ms total)
T53D0 001:639 JLINK_ReadReg(R15 (PC))  returns 0x20000000 (0000ms, 0384ms total)
T53D0 001:639 JLINK_ClrBPEx(BPHandle = 0x00000005)  returns 0x00 (0000ms, 0384ms total)
T53D0 001:639 JLINK_ReadReg(R0)  returns 0x00000000 (0000ms, 0384ms total)
T53D0 001:641 JLINK_WriteReg(R0, 0x08008000)  returns 0x00 (0000ms, 0384ms total)
T53D0 001:641 JLINK_WriteReg(R1, 0x00004000)  returns 0x00 (0000ms, 0384ms total)
T53D0 001:641 JLINK_WriteReg(R2, 0x000000FF)  returns 0x00 (0000ms, 0384ms total)
T53D0 001:641 JLINK_WriteReg(R3, 0x00000000)  returns 0x00 (0000ms, 0384ms total)
T53D0 001:641 JLINK_WriteReg(R4, 0x00000000)  returns 0x00 (0000ms, 0384ms total)
T53D0 001:641 JLINK_WriteReg(R5, 0x00000000)  returns 0x00 (0000ms, 0384ms total)
T53D0 001:641 JLINK_WriteReg(R6, 0x00000000)  returns 0x00 (0000ms, 0384ms total)
T53D0 001:641 JLINK_WriteReg(R7, 0x00000000)  returns 0x00 (0000ms, 0384ms total)
T53D0 001:641 JLINK_WriteReg(R8, 0x00000000)  returns 0x00 (0000ms, 0384ms total)
T53D0 001:641 JLINK_WriteReg(R9, 0x2000017C)  returns 0x00 (0000ms, 0384ms total)
T53D0 001:641 JLINK_WriteReg(R10, 0x00000000)  returns 0x00 (0000ms, 0384ms total)
T53D0 001:641 JLINK_WriteReg(R11, 0x00000000)  returns 0x00 (0000ms, 0384ms total)
T53D0 001:641 JLINK_WriteReg(R12, 0x00000000)  returns 0x00 (0000ms, 0384ms total)
T53D0 001:641 JLINK_WriteReg(R13 (SP), 0x20001000)  returns 0x00 (0000ms, 0384ms total)
T53D0 001:641 JLINK_WriteReg(R14, 0x20000001)  returns 0x00 (0000ms, 0384ms total)
T53D0 001:641 JLINK_WriteReg(R15 (PC), 0x20000020)  returns 0x00 (0000ms, 0384ms total)
T53D0 001:641 JLINK_WriteReg(XPSR, 0x01000000)  returns 0x00 (0000ms, 0384ms total)
T53D0 001:641 JLINK_WriteReg(MSP, 0x20001000)  returns 0x00 (0000ms, 0384ms total)
T53D0 001:641 JLINK_WriteReg(PSP, 0x20001000)  returns 0x00 (0000ms, 0384ms total)
T53D0 001:641 JLINK_WriteReg(CFBP, 0x00000000)  returns 0x00 (0000ms, 0384ms total)
T53D0 001:641 JLINK_SetBPEx(Addr = 0x20000000, Type = 0xFFFFFFF2)  returns 0x00000006 (0000ms, 0384ms total)
T53D0 001:641 JLINK_Go() -- CPU_ReadMem(4 bytes @ 0xE0001000) (0002ms, 0386ms total)
T53D0 001:643 JLINK_IsHalted() -- CPU_ReadMem(2 bytes @ 0x20000000)  returns TRUE (0002ms, 0388ms total)
T53D0 001:645 JLINK_ReadReg(R15 (PC))  returns 0x20000000 (0000ms, 0386ms total)
T53D0 001:645 JLINK_ClrBPEx(BPHandle = 0x00000006)  returns 0x00 (0000ms, 0386ms total)
T53D0 001:645 JLINK_ReadReg(R0)  returns 0x00000001 (0000ms, 0386ms total)
T53D0 001:645 JLINK_WriteReg(R0, 0x08008000)  returns 0x00 (0000ms, 0386ms total)
T53D0 001:645 JLINK_WriteReg(R1, 0x00004000)  returns 0x00 (0000ms, 0386ms total)
T53D0 001:645 JLINK_WriteReg(R2, 0x000000FF)  returns 0x00 (0000ms, 0386ms total)
T53D0 001:645 JLINK_WriteReg(R3, 0x00000000)  returns 0x00 (0000ms, 0386ms total)
T53D0 001:645 JLINK_WriteReg(R4, 0x00000000)  returns 0x00 (0000ms, 0386ms total)
T53D0 001:645 JLINK_WriteReg(R5, 0x00000000)  returns 0x00 (0000ms, 0386ms total)
T53D0 001:645 JLINK_WriteReg(R6, 0x00000000)  returns 0x00 (0000ms, 0386ms total)
T53D0 001:645 JLINK_WriteReg(R7, 0x00000000)  returns 0x00 (0000ms, 0386ms total)
T53D0 001:645 JLINK_WriteReg(R8, 0x00000000)  returns 0x00 (0000ms, 0386ms total)
T53D0 001:645 JLINK_WriteReg(R9, 0x2000017C)  returns 0x00 (0000ms, 0386ms total)
T53D0 001:645 JLINK_WriteReg(R10, 0x00000000)  returns 0x00 (0000ms, 0386ms total)
T53D0 001:645 JLINK_WriteReg(R11, 0x00000000)  returns 0x00 (0000ms, 0386ms total)
T53D0 001:645 JLINK_WriteReg(R12, 0x00000000)  returns 0x00 (0000ms, 0386ms total)
T53D0 001:645 JLINK_WriteReg(R13 (SP), 0x20001000)  returns 0x00 (0000ms, 0386ms total)
T53D0 001:645 JLINK_WriteReg(R14, 0x20000001)  returns 0x00 (0000ms, 0386ms total)
T53D0 001:645 JLINK_WriteReg(R15 (PC), 0x200000BC)  returns 0x00 (0000ms, 0386ms total)
T53D0 001:645 JLINK_WriteReg(XPSR, 0x01000000)  returns 0x00 (0000ms, 0386ms total)
T53D0 001:645 JLINK_WriteReg(MSP, 0x20001000)  returns 0x00 (0000ms, 0386ms total)
T53D0 001:645 JLINK_WriteReg(PSP, 0x20001000)  returns 0x00 (0000ms, 0386ms total)
T53D0 001:645 JLINK_WriteReg(CFBP, 0x00000000)  returns 0x00 (0000ms, 0386ms total)
T53D0 001:645 JLINK_SetBPEx(Addr = 0x20000000, Type = 0xFFFFFFF2)  returns 0x00000007 (0000ms, 0386ms total)
T53D0 001:645 JLINK_Go() -- CPU_ReadMem(4 bytes @ 0xE0001000) (0001ms, 0387ms total)
T53D0 001:646 JLINK_IsHalted()  returns FALSE (0000ms, 0387ms total)
T53D0 001:935 JLINK_IsHalted()  returns FALSE (0000ms, 0387ms total)
T53D0 002:256 JLINK_IsHalted() -- CPU_ReadMem(2 bytes @ 0x20000000)  returns TRUE (0001ms, 0388ms total)
T53D0 002:257 JLINK_ReadReg(R15 (PC))  returns 0x20000000 (0000ms, 0387ms total)
T53D0 002:257 JLINK_ClrBPEx(BPHandle = 0x00000007)  returns 0x00 (0000ms, 0387ms total)
T53D0 002:257 JLINK_ReadReg(R0)  returns 0x00000000 (0001ms, 0388ms total)
T53D0 002:258 JLINK_WriteReg(R0, 0x00000001)  returns 0x00 (0000ms, 0388ms total)
T53D0 002:258 JLINK_WriteReg(R1, 0x00004000)  returns 0x00 (0000ms, 0388ms total)
T53D0 002:258 JLINK_WriteReg(R2, 0x000000FF)  returns 0x00 (0000ms, 0388ms total)
T53D0 002:258 JLINK_WriteReg(R3, 0x00000000)  returns 0x00 (0000ms, 0388ms total)
T53D0 002:258 JLINK_WriteReg(R4, 0x00000000)  returns 0x00 (0000ms, 0388ms total)
T53D0 002:258 JLINK_WriteReg(R5, 0x00000000)  returns 0x00 (0000ms, 0388ms total)
T53D0 002:258 JLINK_WriteReg(R6, 0x00000000)  returns 0x00 (0000ms, 0388ms total)
T53D0 002:258 JLINK_WriteReg(R7, 0x00000000)  returns 0x00 (0000ms, 0388ms total)
T53D0 002:258 JLINK_WriteReg(R8, 0x00000000)  returns 0x00 (0000ms, 0388ms total)
T53D0 002:258 JLINK_WriteReg(R9, 0x2000017C)  returns 0x00 (0000ms, 0388ms total)
T53D0 002:258 JLINK_WriteReg(R10, 0x00000000)  returns 0x00 (0000ms, 0388ms total)
T53D0 002:258 JLINK_WriteReg(R11, 0x00000000)  returns 0x00 (0000ms, 0388ms total)
T53D0 002:258 JLINK_WriteReg(R12, 0x00000000)  returns 0x00 (0000ms, 0388ms total)
T53D0 002:258 JLINK_WriteReg(R13 (SP), 0x20001000)  returns 0x00 (0000ms, 0388ms total)
T53D0 002:258 JLINK_WriteReg(R14, 0x20000001)  returns 0x00 (0000ms, 0388ms total)
T53D0 002:258 JLINK_WriteReg(R15 (PC), 0x20000082)  returns 0x00 (0000ms, 0388ms total)
T53D0 002:258 JLINK_WriteReg(XPSR, 0x01000000)  returns 0x00 (0001ms, 0389ms total)
T53D0 002:259 JLINK_WriteReg(MSP, 0x20001000)  returns 0x00 (0000ms, 0389ms total)
T53D0 002:259 JLINK_WriteReg(PSP, 0x20001000)  returns 0x00 (0000ms, 0389ms total)
T53D0 002:259 JLINK_WriteReg(CFBP, 0x00000000)  returns 0x00 (0000ms, 0389ms total)
T53D0 002:259 JLINK_SetBPEx(Addr = 0x20000000, Type = 0xFFFFFFF2)  returns 0x00000008 (0000ms, 0389ms total)
T53D0 002:259 JLINK_Go() -- CPU_ReadMem(4 bytes @ 0xE0001000) (0001ms, 0390ms total)
T53D0 002:260 JLINK_IsHalted() -- CPU_ReadMem(2 bytes @ 0x20000000)  returns TRUE (0002ms, 0392ms total)
T53D0 002:262 JLINK_ReadReg(R15 (PC))  returns 0x20000000 (0000ms, 0390ms total)
T53D0 002:262 JLINK_ClrBPEx(BPHandle = 0x00000008)  returns 0x00 (0000ms, 0390ms total)
T53D0 002:262 JLINK_ReadReg(R0)  returns 0x00000000 (0000ms, 0390ms total)
T53D0 002:327 JLINK_WriteMem(0x20000000, 0x0180 Bytes, ...) - Data: 00 BE 0A E0 0D 78 2D 06 68 40 08 24 40 00 00 D3 ... -- CPU_WriteMem(384 bytes @ 0x20000000)  returns 0x180 (0002ms, 0392ms total)
T53D0 002:329 JLINK_WriteReg(R0, 0x08000000)  returns 0x00 (0000ms, 0392ms total)
T53D0 002:329 JLINK_WriteReg(R1, 0x00B71B00)  returns 0x00 (0000ms, 0392ms total)
T53D0 002:329 JLINK_WriteReg(R2, 0x00000002)  returns 0x00 (0000ms, 0392ms total)
T53D0 002:329 JLINK_WriteReg(R3, 0x00000000)  returns 0x00 (0000ms, 0392ms total)
T53D0 002:329 JLINK_WriteReg(R4, 0x00000000)  returns 0x00 (0000ms, 0392ms total)
T53D0 002:329 JLINK_WriteReg(R5, 0x00000000)  returns 0x00 (0000ms, 0392ms total)
T53D0 002:329 JLINK_WriteReg(R6, 0x00000000)  returns 0x00 (0000ms, 0392ms total)
T53D0 002:329 JLINK_WriteReg(R7, 0x00000000)  returns 0x00 (0000ms, 0392ms total)
T53D0 002:329 JLINK_WriteReg(R8, 0x00000000)  returns 0x00 (0000ms, 0392ms total)
T53D0 002:329 JLINK_WriteReg(R9, 0x2000017C)  returns 0x00 (0000ms, 0392ms total)
T53D0 002:329 JLINK_WriteReg(R10, 0x00000000)  returns 0x00 (0000ms, 0392ms total)
T53D0 002:329 JLINK_WriteReg(R11, 0x00000000)  returns 0x00 (0000ms, 0392ms total)
T53D0 002:329 JLINK_WriteReg(R12, 0x00000000)  returns 0x00 (0000ms, 0392ms total)
T53D0 002:329 JLINK_WriteReg(R13 (SP), 0x20001000)  returns 0x00 (0000ms, 0392ms total)
T53D0 002:329 JLINK_WriteReg(R14, 0x20000001)  returns 0x00 (0000ms, 0392ms total)
T53D0 002:329 JLINK_WriteReg(R15 (PC), 0x20000054)  returns 0x00 (0000ms, 0392ms total)
T53D0 002:329 JLINK_WriteReg(XPSR, 0x01000000)  returns 0x00 (0000ms, 0392ms total)
T53D0 002:329 JLINK_WriteReg(MSP, 0x20001000)  returns 0x00 (0000ms, 0392ms total)
T53D0 002:329 JLINK_WriteReg(PSP, 0x20001000)  returns 0x00 (0000ms, 0392ms total)
T53D0 002:329 JLINK_WriteReg(CFBP, 0x00000000)  returns 0x00 (0000ms, 0392ms total)
T53D0 002:329 JLINK_SetBPEx(Addr = 0x20000000, Type = 0xFFFFFFF2) -- CPU_ReadMem(2 bytes @ 0x20000000)  returns 0x00000009 (0000ms, 0392ms total)
T53D0 002:329 JLINK_Go() -- CPU_WriteMem(2 bytes @ 0x20000000) -- CPU_ReadMem(4 bytes @ 0xE0001000) (0002ms, 0394ms total)
T53D0 002:331 JLINK_IsHalted() -- CPU_ReadMem(2 bytes @ 0x20000000)  returns TRUE (0002ms, 0396ms total)
T53D0 002:333 JLINK_ReadReg(R15 (PC))  returns 0x20000000 (0000ms, 0394ms total)
T53D0 002:333 JLINK_ClrBPEx(BPHandle = 0x00000009)  returns 0x00 (0000ms, 0394ms total)
T53D0 002:333 JLINK_ReadReg(R0)  returns 0x00000000 (0000ms, 0394ms total)
T53D0 002:334 JLINK_WriteMem(0x20000180, 0x0400 Bytes, ...) - Data: F8 D6 00 20 5D 02 00 08 05 5C 00 08 87 3C 00 08 ... -- CPU_WriteMem(1024 bytes @ 0x20000180)  returns 0x400 (0003ms, 0397ms total)
T53D0 002:337 JLINK_WriteReg(R0, 0x08000000)  returns 0x00 (0000ms, 0397ms total)
T53D0 002:337 JLINK_WriteReg(R1, 0x00000400)  returns 0x00 (0000ms, 0397ms total)
T53D0 002:337 JLINK_WriteReg(R2, 0x20000180)  returns 0x00 (0000ms, 0397ms total)
T53D0 002:337 JLINK_WriteReg(R3, 0x00000000)  returns 0x00 (0000ms, 0397ms total)
T53D0 002:337 JLINK_WriteReg(R4, 0x00000000)  returns 0x00 (0000ms, 0397ms total)
T53D0 002:337 JLINK_WriteReg(R5, 0x00000000)  returns 0x00 (0000ms, 0397ms total)
T53D0 002:337 JLINK_WriteReg(R6, 0x00000000)  returns 0x00 (0000ms, 0397ms total)
T53D0 002:337 JLINK_WriteReg(R7, 0x00000000)  returns 0x00 (0000ms, 0397ms total)
T53D0 002:337 JLINK_WriteReg(R8, 0x00000000)  returns 0x00 (0000ms, 0397ms total)
T53D0 002:337 JLINK_WriteReg(R9, 0x2000017C)  returns 0x00 (0000ms, 0397ms total)
T53D0 002:337 JLINK_WriteReg(R10, 0x00000000)  returns 0x00 (0000ms, 0397ms total)
T53D0 002:337 JLINK_WriteReg(R11, 0x00000000)  returns 0x00 (0000ms, 0397ms total)
T53D0 002:337 JLINK_WriteReg(R12, 0x00000000)  returns 0x00 (0000ms, 0397ms total)
T53D0 002:337 JLINK_WriteReg(R13 (SP), 0x20001000)  returns 0x00 (0000ms, 0397ms total)
T53D0 002:337 JLINK_WriteReg(R14, 0x20000001)  returns 0x00 (0000ms, 0397ms total)
T53D0 002:337 JLINK_WriteReg(R15 (PC), 0x20000108)  returns 0x00 (0000ms, 0397ms total)
T53D0 002:337 JLINK_WriteReg(XPSR, 0x01000000)  returns 0x00 (0000ms, 0397ms total)
T53D0 002:337 JLINK_WriteReg(MSP, 0x20001000)  returns 0x00 (0000ms, 0397ms total)
T53D0 002:337 JLINK_WriteReg(PSP, 0x20001000)  returns 0x00 (0000ms, 0397ms total)
T53D0 002:338 JLINK_WriteReg(CFBP, 0x00000000)  returns 0x00 (0000ms, 0397ms total)
T53D0 002:338 JLINK_SetBPEx(Addr = 0x20000000, Type = 0xFFFFFFF2)  returns 0x0000000A (0000ms, 0397ms total)
T53D0 002:338 JLINK_Go() -- CPU_ReadMem(4 bytes @ 0xE0001000) (0001ms, 0398ms total)
T53D0 002:339 JLINK_IsHalted()  returns FALSE (0000ms, 0398ms total)
T53D0 002:510 JLINK_IsHalted() -- CPU_ReadMem(2 bytes @ 0x20000000)  returns TRUE (0002ms, 0400ms total)
T53D0 002:512 JLINK_ReadReg(R15 (PC))  returns 0x20000000 (0000ms, 0398ms total)
T53D0 002:512 JLINK_ClrBPEx(BPHandle = 0x0000000A)  returns 0x00 (0000ms, 0398ms total)
T53D0 002:512 JLINK_ReadReg(R0)  returns 0x00000000 (0000ms, 0398ms total)
T53D0 002:512 JLINK_WriteMem(0x20000180, 0x0400 Bytes, ...) - Data: 00 18 5B 41 20 18 A2 F5 00 17 47 EB 03 01 40 EA ... -- CPU_WriteMem(1024 bytes @ 0x20000180)  returns 0x400 (0003ms, 0401ms total)
T53D0 002:515 JLINK_WriteReg(R0, 0x08000400)  returns 0x00 (0000ms, 0401ms total)
T53D0 002:515 JLINK_WriteReg(R1, 0x00000400)  returns 0x00 (0000ms, 0401ms total)
T53D0 002:515 JLINK_WriteReg(R2, 0x20000180)  returns 0x00 (0000ms, 0401ms total)
T53D0 002:515 JLINK_WriteReg(R3, 0x00000000)  returns 0x00 (0000ms, 0401ms total)
T53D0 002:515 JLINK_WriteReg(R4, 0x00000000)  returns 0x00 (0001ms, 0402ms total)
T53D0 002:516 JLINK_WriteReg(R5, 0x00000000)  returns 0x00 (0000ms, 0402ms total)
T53D0 002:516 JLINK_WriteReg(R6, 0x00000000)  returns 0x00 (0000ms, 0402ms total)
T53D0 002:516 JLINK_WriteReg(R7, 0x00000000)  returns 0x00 (0000ms, 0402ms total)
T53D0 002:516 JLINK_WriteReg(R8, 0x00000000)  returns 0x00 (0000ms, 0402ms total)
T53D0 002:516 JLINK_WriteReg(R9, 0x2000017C)  returns 0x00 (0000ms, 0402ms total)
T53D0 002:516 JLINK_WriteReg(R10, 0x00000000)  returns 0x00 (0000ms, 0402ms total)
T53D0 002:516 JLINK_WriteReg(R11, 0x00000000)  returns 0x00 (0000ms, 0402ms total)
T53D0 002:516 JLINK_WriteReg(R12, 0x00000000)  returns 0x00 (0000ms, 0402ms total)
T53D0 002:516 JLINK_WriteReg(R13 (SP), 0x20001000)  returns 0x00 (0000ms, 0402ms total)
T53D0 002:516 JLINK_WriteReg(R14, 0x20000001)  returns 0x00 (0000ms, 0402ms total)
T53D0 002:516 JLINK_WriteReg(R15 (PC), 0x20000108)  returns 0x00 (0000ms, 0402ms total)
T53D0 002:516 JLINK_WriteReg(XPSR, 0x01000000)  returns 0x00 (0000ms, 0402ms total)
T53D0 002:516 JLINK_WriteReg(MSP, 0x20001000)  returns 0x00 (0000ms, 0402ms total)
T53D0 002:516 JLINK_WriteReg(PSP, 0x20001000)  returns 0x00 (0000ms, 0402ms total)
T53D0 002:516 JLINK_WriteReg(CFBP, 0x00000000)  returns 0x00 (0000ms, 0402ms total)
T53D0 002:516 JLINK_SetBPEx(Addr = 0x20000000, Type = 0xFFFFFFF2)  returns 0x0000000B (0000ms, 0402ms total)
T53D0 002:516 JLINK_Go() -- CPU_ReadMem(4 bytes @ 0xE0001000) (0001ms, 0403ms total)
T53D0 002:517 JLINK_IsHalted()  returns FALSE (0000ms, 0403ms total)
T53D0 002:529 JLINK_IsHalted() -- CPU_ReadMem(2 bytes @ 0x20000000)  returns TRUE (0002ms, 0405ms total)
T53D0 002:531 JLINK_ReadReg(R15 (PC))  returns 0x20000000 (0000ms, 0403ms total)
T53D0 002:531 JLINK_ClrBPEx(BPHandle = 0x0000000B)  returns 0x00 (0000ms, 0403ms total)
T53D0 002:531 JLINK_ReadReg(R0)  returns 0x00000000 (0000ms, 0403ms total)
T53D0 002:531 JLINK_WriteMem(0x20000180, 0x0400 Bytes, ...) - Data: 20 F0 01 00 10 BC 70 47 10 B5 14 1E 73 F1 00 04 ... -- CPU_WriteMem(1024 bytes @ 0x20000180)  returns 0x400 (0003ms, 0406ms total)
T53D0 002:534 JLINK_WriteReg(R0, 0x08000800)  returns 0x00 (0001ms, 0407ms total)
T53D0 002:535 JLINK_WriteReg(R1, 0x00000400)  returns 0x00 (0000ms, 0407ms total)
T53D0 002:535 JLINK_WriteReg(R2, 0x20000180)  returns 0x00 (0000ms, 0407ms total)
T53D0 002:535 JLINK_WriteReg(R3, 0x00000000)  returns 0x00 (0000ms, 0407ms total)
T53D0 002:535 JLINK_WriteReg(R4, 0x00000000)  returns 0x00 (0000ms, 0407ms total)
T53D0 002:535 JLINK_WriteReg(R5, 0x00000000)  returns 0x00 (0000ms, 0407ms total)
T53D0 002:535 JLINK_WriteReg(R6, 0x00000000)  returns 0x00 (0000ms, 0407ms total)
T53D0 002:535 JLINK_WriteReg(R7, 0x00000000)  returns 0x00 (0000ms, 0407ms total)
T53D0 002:535 JLINK_WriteReg(R8, 0x00000000)  returns 0x00 (0000ms, 0407ms total)
T53D0 002:535 JLINK_WriteReg(R9, 0x2000017C)  returns 0x00 (0000ms, 0407ms total)
T53D0 002:535 JLINK_WriteReg(R10, 0x00000000)  returns 0x00 (0000ms, 0407ms total)
T53D0 002:535 JLINK_WriteReg(R11, 0x00000000)  returns 0x00 (0000ms, 0407ms total)
T53D0 002:535 JLINK_WriteReg(R12, 0x00000000)  returns 0x00 (0000ms, 0407ms total)
T53D0 002:535 JLINK_WriteReg(R13 (SP), 0x20001000)  returns 0x00 (0000ms, 0407ms total)
T53D0 002:535 JLINK_WriteReg(R14, 0x20000001)  returns 0x00 (0000ms, 0407ms total)
T53D0 002:535 JLINK_WriteReg(R15 (PC), 0x20000108)  returns 0x00 (0000ms, 0407ms total)
T53D0 002:535 JLINK_WriteReg(XPSR, 0x01000000)  returns 0x00 (0000ms, 0407ms total)
T53D0 002:535 JLINK_WriteReg(MSP, 0x20001000)  returns 0x00 (0000ms, 0407ms total)
T53D0 002:535 JLINK_WriteReg(PSP, 0x20001000)  returns 0x00 (0000ms, 0407ms total)
T53D0 002:535 JLINK_WriteReg(CFBP, 0x00000000)  returns 0x00 (0000ms, 0407ms total)
T53D0 002:535 JLINK_SetBPEx(Addr = 0x20000000, Type = 0xFFFFFFF2)  returns 0x0000000C (0000ms, 0407ms total)
T53D0 002:535 JLINK_Go() -- CPU_ReadMem(4 bytes @ 0xE0001000) (0001ms, 0408ms total)
T53D0 002:536 JLINK_IsHalted()  returns FALSE (0000ms, 0408ms total)
T53D0 002:598 JLINK_IsHalted() -- CPU_ReadMem(2 bytes @ 0x20000000)  returns TRUE (0002ms, 0410ms total)
T53D0 002:600 JLINK_ReadReg(R15 (PC))  returns 0x20000000 (0000ms, 0408ms total)
T53D0 002:600 JLINK_ClrBPEx(BPHandle = 0x0000000C)  returns 0x00 (0000ms, 0408ms total)
T53D0 002:600 JLINK_ReadReg(R0)  returns 0x00000000 (0000ms, 0408ms total)
T53D0 002:601 JLINK_WriteMem(0x20000180, 0x0400 Bytes, ...) - Data: 01 22 00 24 03 EB 04 09 06 EB 04 0E 01 32 04 34 ... -- CPU_WriteMem(1024 bytes @ 0x20000180)  returns 0x400 (0003ms, 0411ms total)
T53D0 002:604 JLINK_WriteReg(R0, 0x08000C00)  returns 0x00 (0000ms, 0411ms total)
T53D0 002:604 JLINK_WriteReg(R1, 0x00000400)  returns 0x00 (0000ms, 0411ms total)
T53D0 002:604 JLINK_WriteReg(R2, 0x20000180)  returns 0x00 (0000ms, 0411ms total)
T53D0 002:604 JLINK_WriteReg(R3, 0x00000000)  returns 0x00 (0000ms, 0411ms total)
T53D0 002:605 JLINK_WriteReg(R4, 0x00000000)  returns 0x00 (0000ms, 0411ms total)
T53D0 002:605 JLINK_WriteReg(R5, 0x00000000)  returns 0x00 (0000ms, 0411ms total)
T53D0 002:605 JLINK_WriteReg(R6, 0x00000000)  returns 0x00 (0000ms, 0411ms total)
T53D0 002:605 JLINK_WriteReg(R7, 0x00000000)  returns 0x00 (0000ms, 0411ms total)
T53D0 002:605 JLINK_WriteReg(R8, 0x00000000)  returns 0x00 (0000ms, 0411ms total)
T53D0 002:605 JLINK_WriteReg(R9, 0x2000017C)  returns 0x00 (0000ms, 0411ms total)
T53D0 002:605 JLINK_WriteReg(R10, 0x00000000)  returns 0x00 (0000ms, 0411ms total)
T53D0 002:605 JLINK_WriteReg(R11, 0x00000000)  returns 0x00 (0000ms, 0411ms total)
T53D0 002:605 JLINK_WriteReg(R12, 0x00000000)  returns 0x00 (0000ms, 0411ms total)
T53D0 002:605 JLINK_WriteReg(R13 (SP), 0x20001000)  returns 0x00 (0000ms, 0411ms total)
T53D0 002:605 JLINK_WriteReg(R14, 0x20000001)  returns 0x00 (0000ms, 0411ms total)
T53D0 002:605 JLINK_WriteReg(R15 (PC), 0x20000108)  returns 0x00 (0000ms, 0411ms total)
T53D0 002:605 JLINK_WriteReg(XPSR, 0x01000000)  returns 0x00 (0000ms, 0411ms total)
T53D0 002:605 JLINK_WriteReg(MSP, 0x20001000)  returns 0x00 (0000ms, 0411ms total)
T53D0 002:605 JLINK_WriteReg(PSP, 0x20001000)  returns 0x00 (0000ms, 0411ms total)
T53D0 002:605 JLINK_WriteReg(CFBP, 0x00000000)  returns 0x00 (0000ms, 0411ms total)
T53D0 002:605 JLINK_SetBPEx(Addr = 0x20000000, Type = 0xFFFFFFF2)  returns 0x0000000D (0000ms, 0411ms total)
T53D0 002:605 JLINK_Go() -- CPU_ReadMem(4 bytes @ 0xE0001000) (0001ms, 0412ms total)
T53D0 002:606 JLINK_IsHalted()  returns FALSE (0000ms, 0412ms total)
T53D0 002:625 JLINK_IsHalted() -- CPU_ReadMem(2 bytes @ 0x20000000)  returns TRUE (0001ms, 0413ms total)
T53D0 002:626 JLINK_ReadReg(R15 (PC))  returns 0x20000000 (0001ms, 0413ms total)
T53D0 002:627 JLINK_ClrBPEx(BPHandle = 0x0000000D)  returns 0x00 (0000ms, 0413ms total)
T53D0 002:627 JLINK_ReadReg(R0)  returns 0x00000000 (0000ms, 0413ms total)
T53D0 002:627 JLINK_WriteMem(0x20000180, 0x0400 Bytes, ...) - Data: 8A 60 01 68 8A 68 C3 6A 1A 43 01 E0 22 F0 40 52 ... -- CPU_WriteMem(1024 bytes @ 0x20000180)  returns 0x400 (0003ms, 0416ms total)
T53D0 002:630 JLINK_WriteReg(R0, 0x08001000)  returns 0x00 (0000ms, 0416ms total)
T53D0 002:630 JLINK_WriteReg(R1, 0x00000400)  returns 0x00 (0000ms, 0416ms total)
T53D0 002:630 JLINK_WriteReg(R2, 0x20000180)  returns 0x00 (0000ms, 0416ms total)
T53D0 002:630 JLINK_WriteReg(R3, 0x00000000)  returns 0x00 (0000ms, 0416ms total)
T53D0 002:630 JLINK_WriteReg(R4, 0x00000000)  returns 0x00 (0001ms, 0417ms total)
T53D0 002:631 JLINK_WriteReg(R5, 0x00000000)  returns 0x00 (0000ms, 0417ms total)
T53D0 002:631 JLINK_WriteReg(R6, 0x00000000)  returns 0x00 (0000ms, 0417ms total)
T53D0 002:631 JLINK_WriteReg(R7, 0x00000000)  returns 0x00 (0000ms, 0417ms total)
T53D0 002:631 JLINK_WriteReg(R8, 0x00000000)  returns 0x00 (0000ms, 0417ms total)
T53D0 002:631 JLINK_WriteReg(R9, 0x2000017C)  returns 0x00 (0000ms, 0417ms total)
T53D0 002:631 JLINK_WriteReg(R10, 0x00000000)  returns 0x00 (0000ms, 0417ms total)
T53D0 002:631 JLINK_WriteReg(R11, 0x00000000)  returns 0x00 (0000ms, 0417ms total)
T53D0 002:631 JLINK_WriteReg(R12, 0x00000000)  returns 0x00 (0000ms, 0417ms total)
T53D0 002:631 JLINK_WriteReg(R13 (SP), 0x20001000)  returns 0x00 (0000ms, 0417ms total)
T53D0 002:631 JLINK_WriteReg(R14, 0x20000001)  returns 0x00 (0000ms, 0417ms total)
T53D0 002:631 JLINK_WriteReg(R15 (PC), 0x20000108)  returns 0x00 (0000ms, 0417ms total)
T53D0 002:631 JLINK_WriteReg(XPSR, 0x01000000)  returns 0x00 (0000ms, 0417ms total)
T53D0 002:631 JLINK_WriteReg(MSP, 0x20001000)  returns 0x00 (0000ms, 0417ms total)
T53D0 002:631 JLINK_WriteReg(PSP, 0x20001000)  returns 0x00 (0000ms, 0417ms total)
T53D0 002:631 JLINK_WriteReg(CFBP, 0x00000000)  returns 0x00 (0000ms, 0417ms total)
T53D0 002:631 JLINK_SetBPEx(Addr = 0x20000000, Type = 0xFFFFFFF2)  returns 0x0000000E (0000ms, 0417ms total)
T53D0 002:631 JLINK_Go() -- CPU_ReadMem(4 bytes @ 0xE0001000) (0001ms, 0418ms total)
T53D0 002:632 JLINK_IsHalted()  returns FALSE (0000ms, 0418ms total)
T53D0 002:640 JLINK_IsHalted() -- CPU_ReadMem(2 bytes @ 0x20000000)  returns TRUE (0002ms, 0420ms total)
T53D0 002:642 JLINK_ReadReg(R15 (PC))  returns 0x20000000 (0000ms, 0418ms total)
T53D0 002:642 JLINK_ClrBPEx(BPHandle = 0x0000000E)  returns 0x00 (0000ms, 0418ms total)
T53D0 002:642 JLINK_ReadReg(R0)  returns 0x00000000 (0000ms, 0418ms total)
T53D0 002:642 JLINK_WriteMem(0x20000180, 0x0400 Bytes, ...) - Data: BE FA 08 49 00 23 1A 46 F0 31 08 48 00 94 04 F0 ... -- CPU_WriteMem(1024 bytes @ 0x20000180)  returns 0x400 (0003ms, 0421ms total)
T53D0 002:645 JLINK_WriteReg(R0, 0x08001400)  returns 0x00 (0000ms, 0421ms total)
T53D0 002:645 JLINK_WriteReg(R1, 0x00000400)  returns 0x00 (0000ms, 0421ms total)
T53D0 002:645 JLINK_WriteReg(R2, 0x20000180)  returns 0x00 (0000ms, 0421ms total)
T53D0 002:645 JLINK_WriteReg(R3, 0x00000000)  returns 0x00 (0000ms, 0421ms total)
T53D0 002:645 JLINK_WriteReg(R4, 0x00000000)  returns 0x00 (0000ms, 0421ms total)
T53D0 002:646 JLINK_WriteReg(R5, 0x00000000)  returns 0x00 (0000ms, 0422ms total)
T53D0 002:646 JLINK_WriteReg(R6, 0x00000000)  returns 0x00 (0000ms, 0422ms total)
T53D0 002:646 JLINK_WriteReg(R7, 0x00000000)  returns 0x00 (0000ms, 0422ms total)
T53D0 002:646 JLINK_WriteReg(R8, 0x00000000)  returns 0x00 (0000ms, 0422ms total)
T53D0 002:646 JLINK_WriteReg(R9, 0x2000017C)  returns 0x00 (0000ms, 0422ms total)
T53D0 002:646 JLINK_WriteReg(R10, 0x00000000)  returns 0x00 (0000ms, 0422ms total)
T53D0 002:646 JLINK_WriteReg(R11, 0x00000000)  returns 0x00 (0000ms, 0422ms total)
T53D0 002:646 JLINK_WriteReg(R12, 0x00000000)  returns 0x00 (0000ms, 0422ms total)
T53D0 002:646 JLINK_WriteReg(R13 (SP), 0x20001000)  returns 0x00 (0000ms, 0422ms total)
T53D0 002:646 JLINK_WriteReg(R14, 0x20000001)  returns 0x00 (0000ms, 0422ms total)
T53D0 002:646 JLINK_WriteReg(R15 (PC), 0x20000108)  returns 0x00 (0000ms, 0422ms total)
T53D0 002:646 JLINK_WriteReg(XPSR, 0x01000000)  returns 0x00 (0000ms, 0422ms total)
T53D0 002:646 JLINK_WriteReg(MSP, 0x20001000)  returns 0x00 (0000ms, 0422ms total)
T53D0 002:646 JLINK_WriteReg(PSP, 0x20001000)  returns 0x00 (0000ms, 0422ms total)
T53D0 002:646 JLINK_WriteReg(CFBP, 0x00000000)  returns 0x00 (0000ms, 0422ms total)
T53D0 002:646 JLINK_SetBPEx(Addr = 0x20000000, Type = 0xFFFFFFF2)  returns 0x0000000F (0000ms, 0422ms total)
T53D0 002:646 JLINK_Go() -- CPU_ReadMem(4 bytes @ 0xE0001000) (0001ms, 0423ms total)
T53D0 002:647 JLINK_IsHalted()  returns FALSE (0000ms, 0423ms total)
T53D0 002:723 JLINK_IsHalted() -- CPU_ReadMem(2 bytes @ 0x20000000)  returns TRUE (0002ms, 0425ms total)
T53D0 002:725 JLINK_ReadReg(R15 (PC))  returns 0x20000000 (0000ms, 0423ms total)
T53D0 002:725 JLINK_ClrBPEx(BPHandle = 0x0000000F)  returns 0x00 (0000ms, 0423ms total)
T53D0 002:725 JLINK_ReadReg(R0)  returns 0x00000000 (0000ms, 0423ms total)
T53D0 002:727 JLINK_WriteMem(0x20000180, 0x0400 Bytes, ...) - Data: 70 47 00 00 98 5F 00 20 00 48 70 47 98 5F 00 20 ... -- CPU_WriteMem(1024 bytes @ 0x20000180)  returns 0x400 (0003ms, 0426ms total)
T53D0 002:730 JLINK_WriteReg(R0, 0x08001800)  returns 0x00 (0000ms, 0426ms total)
T53D0 002:730 JLINK_WriteReg(R1, 0x00000400)  returns 0x00 (0000ms, 0426ms total)
T53D0 002:730 JLINK_WriteReg(R2, 0x20000180)  returns 0x00 (0000ms, 0426ms total)
T53D0 002:730 JLINK_WriteReg(R3, 0x00000000)  returns 0x00 (0000ms, 0426ms total)
T53D0 002:730 JLINK_WriteReg(R4, 0x00000000)  returns 0x00 (0000ms, 0426ms total)
T53D0 002:730 JLINK_WriteReg(R5, 0x00000000)  returns 0x00 (0000ms, 0426ms total)
T53D0 002:730 JLINK_WriteReg(R6, 0x00000000)  returns 0x00 (0000ms, 0426ms total)
T53D0 002:730 JLINK_WriteReg(R7, 0x00000000)  returns 0x00 (0000ms, 0426ms total)
T53D0 002:730 JLINK_WriteReg(R8, 0x00000000)  returns 0x00 (0000ms, 0426ms total)
T53D0 002:730 JLINK_WriteReg(R9, 0x2000017C)  returns 0x00 (0000ms, 0426ms total)
T53D0 002:730 JLINK_WriteReg(R10, 0x00000000)  returns 0x00 (0000ms, 0426ms total)
T53D0 002:730 JLINK_WriteReg(R11, 0x00000000)  returns 0x00 (0000ms, 0426ms total)
T53D0 002:730 JLINK_WriteReg(R12, 0x00000000)  returns 0x00 (0000ms, 0426ms total)
T53D0 002:730 JLINK_WriteReg(R13 (SP), 0x20001000)  returns 0x00 (0000ms, 0426ms total)
T53D0 002:730 JLINK_WriteReg(R14, 0x20000001)  returns 0x00 (0000ms, 0426ms total)
T53D0 002:730 JLINK_WriteReg(R15 (PC), 0x20000108)  returns 0x00 (0000ms, 0426ms total)
T53D0 002:730 JLINK_WriteReg(XPSR, 0x01000000)  returns 0x00 (0000ms, 0426ms total)
T53D0 002:730 JLINK_WriteReg(MSP, 0x20001000)  returns 0x00 (0000ms, 0426ms total)
T53D0 002:730 JLINK_WriteReg(PSP, 0x20001000)  returns 0x00 (0000ms, 0426ms total)
T53D0 002:730 JLINK_WriteReg(CFBP, 0x00000000)  returns 0x00 (0000ms, 0426ms total)
T53D0 002:730 JLINK_SetBPEx(Addr = 0x20000000, Type = 0xFFFFFFF2)  returns 0x00000010 (0000ms, 0426ms total)
T53D0 002:730 JLINK_Go() -- CPU_ReadMem(4 bytes @ 0xE0001000) (0001ms, 0427ms total)
T53D0 002:731 JLINK_IsHalted()  returns FALSE (0000ms, 0427ms total)
T53D0 002:756 JLINK_IsHalted() -- CPU_ReadMem(2 bytes @ 0x20000000)  returns TRUE (0002ms, 0429ms total)
T53D0 002:758 JLINK_ReadReg(R15 (PC))  returns 0x20000000 (0000ms, 0427ms total)
T53D0 002:758 JLINK_ClrBPEx(BPHandle = 0x00000010)  returns 0x00 (0000ms, 0427ms total)
T53D0 002:758 JLINK_ReadReg(R0)  returns 0x00000000 (0000ms, 0427ms total)
T53D0 002:758 JLINK_WriteMem(0x20000180, 0x0400 Bytes, ...) - Data: 07 B0 F0 BD 00 20 01 40 44 38 02 40 00 00 02 40 ... -- CPU_WriteMem(1024 bytes @ 0x20000180)  returns 0x400 (0004ms, 0431ms total)
T53D0 002:762 JLINK_WriteReg(R0, 0x08001C00)  returns 0x00 (0000ms, 0431ms total)
T53D0 002:762 JLINK_WriteReg(R1, 0x00000400)  returns 0x00 (0000ms, 0431ms total)
T53D0 002:762 JLINK_WriteReg(R2, 0x20000180)  returns 0x00 (0000ms, 0431ms total)
T53D0 002:762 JLINK_WriteReg(R3, 0x00000000)  returns 0x00 (0000ms, 0431ms total)
T53D0 002:762 JLINK_WriteReg(R4, 0x00000000)  returns 0x00 (0000ms, 0431ms total)
T53D0 002:762 JLINK_WriteReg(R5, 0x00000000)  returns 0x00 (0000ms, 0431ms total)
